T43E90 000:007.137   SEGGER J-Link V6.98e Log File
T43E90 000:007.246   DLL Compiled: Mar 29 2021 14:18:39
T43E90 000:007.257   Logging started @ 2025-09-02 12:21
T43E90 000:007.266 - 7.270ms
T43E90 000:007.280 JLINK_SetWarnOutHandler(...)
T43E90 000:007.290 - 0.015ms
T43E90 000:007.301 JLINK_OpenEx(...)
T43E90 000:016.961   Firmware: J-Link V9 compiled May  7 2021 16:26:12
T43E90 000:017.275   Firmware: J-Link V9 compiled May  7 2021 16:26:12
T43E90 000:017.478   Decompressing FW timestamp took 148 us
T43E90 000:023.411   Hardware: V9.50
T43E90 000:023.439   S/N: 29534567
T43E90 000:023.453   OEM: SEGGER
T43E90 000:023.466   Feature(s): GDB, RDI, FlashBP, FlashDL, JFlash
T43E90 000:024.295   TELNET listener socket opened on port 19021
T43E90 000:024.487   WEBSRV Starting webserver
T43E90 000:026.037   WEBSRV Failed to put socket into listener state (port 19080)
T43E90 000:026.146   WEBSRV Webserver running on local port 19081
T43E90 000:026.167 - 18.872ms returns "O.K."
T43E90 000:026.190 JLINK_GetEmuCaps()
T43E90 000:026.200 - 0.013ms returns 0xB9FF7BBF
T43E90 000:026.212 JLINK_TIF_GetAvailable(...)
T43E90 000:026.418 - 0.222ms
T43E90 000:026.443 JLINK_SetErrorOutHandler(...)
T43E90 000:026.453 - 0.013ms
T43E90 000:026.497 JLINK_ExecCommand("ProjectFile = "c:\Users\Admin\Desktop\project\JLinkSettings.ini"", ...). 
T43E90 000:035.695   Ref file found at: D:\app-one\Keil_v541\ARM\Segger\JLinkDevices.ref
T43E90 000:035.907   XML referenced by ref file: D:\SEGGER\JLink_V698e\JLinkDevices.xml
T43E90 000:037.126   D:\SEGGER\JLink_V698e\JLinkDevices.xml evaluated successfully.
T43E90 000:157.340 - 130.862ms returns 0x00
T43E90 000:157.642 JLINK_ExecCommand("Device = SWM341xE", ...). 
T43E90 000:163.186   Device "SWM341XE" selected.
T43E90 000:164.213 - 6.579ms returns 0x00
T43E90 000:164.266 JLINK_GetHardwareVersion()
T43E90 000:164.279 - 0.017ms returns 95000
T43E90 000:164.290 JLINK_GetDLLVersion()
T43E90 000:164.303 - 0.018ms returns 69805
T43E90 000:164.316 JLINK_GetOEMString(...)
T43E90 000:164.350 JLINK_GetFirmwareString(...)
T43E90 000:164.360 - 0.015ms
T43E90 000:164.829 JLINK_GetDLLVersion()
T43E90 000:164.854 - 0.031ms returns 69805
T43E90 000:164.868 JLINK_GetCompileDateTime()
T43E90 000:164.880 - 0.018ms
T43E90 000:165.470 JLINK_GetFirmwareString(...)
T43E90 000:165.486 - 0.020ms
T43E90 000:165.727 JLINK_GetHardwareVersion()
T43E90 000:165.741 - 0.017ms returns 95000
T43E90 000:165.985 JLINK_GetSN()
T43E90 000:166.000 - 0.019ms returns 29534567
T43E90 000:166.171 JLINK_GetOEMString(...)
T43E90 000:166.560 JLINK_TIF_Select(JLINKARM_TIF_SWD)
T43E90 000:167.112 - 0.563ms returns 0x00
T43E90 000:167.131 JLINK_HasError()
T43E90 000:167.165 JLINK_SetSpeed(20000)
T43E90 000:167.256 - 0.106ms
T43E90 000:167.282 JLINK_GetId()
T43E90 000:168.084   Found SW-DP with ID 0x1BE12AEB
T43E90 000:170.280   DPIDR: 0x1BE12AEB
T43E90 000:170.426   Scanning AP map to find all available APs
T43E90 000:170.994   AP[1]: Stopped AP scan as end of AP map has been reached
T43E90 000:171.176   AP[0]: AHB-AP (IDR: 0x1AEB0015)
T43E90 000:171.337   Iterating through AP map to find AHB-AP to use
T43E90 000:172.113   AP[0]: Core found
T43E90 000:172.242   AP[0]: AHB-AP ROM base: 0xE00FE000
T43E90 000:172.794   CPUID register: 0x630F1321. Implementer code: 0x63 (ARM China)
T43E90 000:172.927   Found STAR r0p1, Little endian.
T43E90 000:274.256   Identified core does not match configuration. (Found: STAR, Configured: Cortex-M33)
T43E90 000:274.600   -- Max. mem block: 0x00010C40
T43E90 000:274.955   CPU_ReadMem(4 bytes @ 0xE000EDF0)
T43E90 000:275.189   CPU_WriteMem(4 bytes @ 0xE000EDF0)
T43E90 000:275.453   CPU_ReadMem(4 bytes @ 0xE0002000)
T43E90 000:275.852   FPUnit: 8 code (BP) slots and 0 literal slots
T43E90 000:275.867   CPU_ReadMem(4 bytes @ 0xE000EDFC)
T43E90 000:276.063   CPU_WriteMem(4 bytes @ 0xE000EDFC)
T43E90 000:276.365   CPU_ReadMem(4 bytes @ 0xE0001000)
T43E90 000:276.582   CPU_WriteMem(4 bytes @ 0xE0001000)
T43E90 000:276.825   CPU_ReadMem(4 bytes @ 0xE000ED88)
T43E90 000:277.010   CPU_WriteMem(4 bytes @ 0xE000ED88)
T43E90 000:277.239   CPU_ReadMem(4 bytes @ 0xE000ED88)
T43E90 000:277.505   CPU_WriteMem(4 bytes @ 0xE000ED88)
T43E90 000:277.726   CPU_ReadMem(4 bytes @ 0xE000EFB8)
T43E90 000:278.071   Security extension: not implemented
T43E90 000:278.206   CoreSight components:
T43E90 000:278.338   ROMTbl[0] @ E00FE000
T43E90 000:278.352   CPU_ReadMem(64 bytes @ 0xE00FE000)
T43E90 000:278.725   CPU_ReadMem(32 bytes @ 0xE00FFFE0)
T43E90 000:279.124   ROMTbl[0][0]: E00FF000, CID: B105100D, PID: 001F5132 ROM Table
T43E90 000:279.253   ROMTbl[1] @ E00FF000
T43E90 000:279.267   CPU_ReadMem(64 bytes @ 0xE00FF000)
T43E90 000:279.650   CPU_ReadMem(32 bytes @ 0xE000EFE0)
T43E90 000:279.931   CPU_ReadMem(4 bytes @ 0xE000EFBC)
T43E90 000:280.111   CPU_ReadMem(4 bytes @ 0xE000EFCC)
T43E90 000:280.486   ROMTbl[1][0]: E000E000, CID: B105900D, PID: 001F5132 ???
T43E90 000:280.499   CPU_ReadMem(32 bytes @ 0xE0001FE0)
T43E90 000:280.781   CPU_ReadMem(4 bytes @ 0xE0001FBC)
T43E90 000:280.989   CPU_ReadMem(4 bytes @ 0xE0001FCC)
T43E90 000:281.285   ROMTbl[1][1]: E0001000, CID: B105900D, PID: 000F5132 DWT
T43E90 000:281.298   CPU_ReadMem(32 bytes @ 0xE0002FE0)
T43E90 000:281.587   CPU_ReadMem(4 bytes @ 0xE0002FBC)
T43E90 000:281.764   CPU_ReadMem(4 bytes @ 0xE0002FCC)
T43E90 000:282.463   ROMTbl[1][2]: E0002000, CID: B105900D, PID: 000F5132 FPB
T43E90 000:282.480   CPU_ReadMem(32 bytes @ 0xE0000FE0)
T43E90 000:282.798   CPU_ReadMem(4 bytes @ 0xE0000FBC)
T43E90 000:282.993   CPU_ReadMem(4 bytes @ 0xE0000FCC)
T43E90 000:283.323   ROMTbl[1][3]: E0000000, CID: B105900D, PID: 000F5132 ITM
T43E90 000:283.338   CPU_ReadMem(32 bytes @ 0xE0042FE0)
T43E90 000:283.631   CPU_ReadMem(4 bytes @ 0xE0042FBC)
T43E90 000:283.823   CPU_ReadMem(4 bytes @ 0xE0042FCC)
T43E90 000:284.130   ROMTbl[1][6]: E0042000, CID: B105900D, PID: 000F5132 CSS600-CTI
T43E90 000:284.143   CPU_ReadMem(32 bytes @ 0xE0040FE0)
T43E90 000:284.408   CPU_ReadMem(4 bytes @ 0xE0040FBC)
T43E90 000:284.588   CPU_ReadMem(4 bytes @ 0xE0040FCC)
T43E90 000:284.877   ROMTbl[0][1]: E0040000, CID: B105900D, PID: 000F5132 ???
T43E90 000:285.085 - 117.808ms returns 0x1BE12AEB
T43E90 000:285.121 JLINK_GetDLLVersion()
T43E90 000:285.130 - 0.012ms returns 69805
T43E90 000:285.140 JLINK_CORE_GetFound()
T43E90 000:285.148 - 0.012ms returns 0xE0400FF
T43E90 000:285.161 JLINK_GetDebugInfo(0x100 = JLINKARM_ROM_TABLE_ADDR_INDEX)
T43E90 000:285.171   Value=0xE00FE000
T43E90 000:285.183 - 0.025ms returns 0
T43E90 000:285.302 JLINK_GetDebugInfo(0x100 = JLINKARM_ROM_TABLE_ADDR_INDEX)
T43E90 000:285.311   Value=0xE00FE000
T43E90 000:285.323 - 0.025ms returns 0
T43E90 000:285.332 JLINK_GetDebugInfo(0x101 = JLINKARM_DEBUG_INFO_ETM_ADDR_INDEX)
T43E90 000:285.340   Value=0x00000000
T43E90 000:285.352 - 0.024ms returns 0
T43E90 000:285.362 JLINK_ReadMemEx(0xE0041FF0, 0x10 Bytes, Flags = 0x02000004)
T43E90 000:285.387   CPU_ReadMem(16 bytes @ 0xE0041FF0)
T43E90 000:285.613   Data:  00 00 00 00 00 00 00 00 00 00 00 00 00 00 00 00
T43E90 000:285.629 - 0.271ms returns 16 (0x10)
T43E90 000:285.640 JLINK_GetDebugInfo(0x102 = JLINKARM_DEBUG_INFO_MTB_ADDR_INDEX)
T43E90 000:285.649   Value=0x00000000
T43E90 000:285.661 - 0.025ms returns 0
T43E90 000:285.670 JLINK_GetDebugInfo(0x103 = JLINKARM_DEBUG_INFO_TPIU_ADDR_INDEX)
T43E90 000:285.679   Value=0x00000000
T43E90 000:285.691 - 0.024ms returns 0
T43E90 000:285.700 JLINK_GetDebugInfo(0x104 = JLINKARM_DEBUG_INFO_ITM_ADDR_INDEX)
T43E90 000:285.709   Value=0xE0000000
T43E90 000:285.721 - 0.024ms returns 0
T43E90 000:285.730 JLINK_GetDebugInfo(0x105 = JLINKARM_DEBUG_INFO_DWT_ADDR_INDEX)
T43E90 000:285.738   Value=0xE0001000
T43E90 000:285.750 - 0.024ms returns 0
T43E90 000:285.759 JLINK_GetDebugInfo(0x106 = JLINKARM_DEBUG_INFO_FPB_ADDR_INDEX)
T43E90 000:285.768   Value=0xE0002000
T43E90 000:285.780 - 0.024ms returns 0
T43E90 000:285.789 JLINK_GetDebugInfo(0x107 = JLINKARM_DEBUG_INFO_NVIC_ADDR_INDEX)
T43E90 000:285.797   Value=0xE000E000
T43E90 000:285.809 - 0.024ms returns 0
T43E90 000:285.820 JLINK_GetDebugInfo(0x10C = JLINKARM_DEBUG_INFO_DBG_ADDR_INDEX)
T43E90 000:285.830   Value=0xE000EDF0
T43E90 000:285.843 - 0.026ms returns 0
T43E90 000:285.852 JLINK_GetDebugInfo(0x01 = Unknown)
T43E90 000:285.860   Value=0x00000001
T43E90 000:285.873 - 0.024ms returns 0
T43E90 000:285.882 JLINK_ReadMemU32(0xE000ED00, 0x1 Items)
T43E90 000:285.895   CPU_ReadMem(4 bytes @ 0xE000ED00)
T43E90 000:286.083   Data:  21 13 0F 63
T43E90 000:286.096   Debug reg: CPUID
T43E90 000:286.108 - 0.231ms returns 1 (0x1)
T43E90 000:286.118 JLINK_GetDebugInfo(0x10F = JLINKARM_DEBUG_INFO_HAS_CORTEX_M_SECURITY_EXT_INDEX)
T43E90 000:286.127   Value=0x00000000
T43E90 000:286.139 - 0.024ms returns 0
T43E90 000:286.148 JLINK_ReadMemEx(0xE000ED74, 0x4 Bytes, Flags = 0x02000004)
T43E90 000:286.158   CPU_ReadMem(4 bytes @ 0xE000ED74)
T43E90 000:286.364   Data:  00 00 00 00
T43E90 000:286.377 - 0.232ms returns 4 (0x4)
T43E90 000:286.548 JLINK_HasError()
T43E90 000:286.563 JLINK_SetResetType(JLINKARM_CM3_RESET_TYPE_NORMAL)
T43E90 000:286.572 - 0.013ms returns JLINKARM_CM3_RESET_TYPE_NORMAL
T43E90 000:286.582 JLINK_Reset()
T43E90 000:286.608   CPU is running
T43E90 000:286.623   CPU_WriteMem(4 bytes @ 0xE000EDF0)
T43E90 000:286.849   CPU_ReadMem(4 bytes @ 0xE000ED44)
T43E90 000:287.034   CPU is running
T43E90 000:287.047   CPU_WriteMem(4 bytes @ 0xE000EDFC)
T43E90 000:287.386   Reset: Halt core after reset via DEMCR.VC_CORERESET.
T43E90 000:287.764   Reset: Reset device via AIRCR.SYSRESETREQ.
T43E90 000:287.777   CPU is running
T43E90 000:287.790   CPU_WriteMem(4 bytes @ 0xE000ED0C)
T43E90 000:340.148   CPU_ReadMem(4 bytes @ 0xE000EDF0)
T43E90 000:340.365   CPU_ReadMem(4 bytes @ 0xE000EDF0)
T43E90 000:340.556   CPU is running
T43E90 000:340.569   CPU_WriteMem(4 bytes @ 0xE000EDF0)
T43E90 000:340.786   CPU is running
T43E90 000:340.799   CPU_WriteMem(4 bytes @ 0xE000EDFC)
T43E90 000:346.854   CPU_ReadMem(4 bytes @ 0xE000EDF0)
T43E90 000:348.544   CPU_ReadMem(4 bytes @ 0xE000EE08)
T43E90 000:348.745   CPU_WriteMem(4 bytes @ 0xE0002000)
T43E90 000:348.968   CPU_ReadMem(4 bytes @ 0xE000EDFC)
T43E90 000:349.155   CPU_ReadMem(4 bytes @ 0xE0001000)
T43E90 000:349.365   CPU_ReadMem(4 bytes @ 0xE000EE08)
T43E90 000:349.585 - 63.007ms
T43E90 000:349.628 JLINK_Halt()
T43E90 000:349.637 - 0.013ms returns 0x00
T43E90 000:349.647 JLINK_ReadMemU32(0xE000EDF0, 0x1 Items)
T43E90 000:349.661   CPU_ReadMem(4 bytes @ 0xE000EDF0)
T43E90 000:349.866   Data:  03 00 03 00
T43E90 000:349.879   Debug reg: DHCSR
T43E90 000:349.891 - 0.247ms returns 1 (0x1)
T43E90 000:349.901 JLINK_WriteU32_64(0xE000EDF0, 0xA05F0003)
T43E90 000:349.912   Debug reg: DHCSR
T43E90 000:350.195   CPU_WriteMem(4 bytes @ 0xE000EDF0)
T43E90 000:350.412 - 0.515ms returns 0 (0x00000000)
T43E90 000:350.423 JLINK_WriteU32_64(0xE000EDFC, 0x01000000)
T43E90 000:350.432   Debug reg: DEMCR
T43E90 000:350.446   CPU_WriteMem(4 bytes @ 0xE000EDFC)
T43E90 000:350.682 - 0.263ms returns 0 (0x00000000)
T43E90 000:351.268 JLINK_GetHWStatus(...)
T43E90 000:351.434 - 0.170ms returns 0
T43E90 000:351.760 JLINK_GetNumBPUnits(Type = 0xFFFFFF00)
T43E90 000:351.769 - 0.013ms returns 0x08
T43E90 000:351.778 JLINK_GetNumBPUnits(Type = 0xF0)
T43E90 000:351.787 - 0.012ms returns 0x2000
T43E90 000:351.796 JLINK_GetNumWPUnits()
T43E90 000:351.804 - 0.012ms returns 4
T43E90 000:352.122 JLINK_GetSpeed()
T43E90 000:352.132 - 0.013ms returns 12000
T43E90 000:352.348 JLINK_ReadMemU32(0xE000E004, 0x1 Items)
T43E90 000:352.360   CPU_ReadMem(4 bytes @ 0xE000E004)
T43E90 000:352.556   Data:  02 00 00 00
T43E90 000:352.569 - 0.225ms returns 1 (0x1)
T43E90 000:352.579 JLINK_ReadMemU32(0xE000E004, 0x1 Items)
T43E90 000:352.589   CPU_ReadMem(4 bytes @ 0xE000E004)
T43E90 000:352.793   Data:  02 00 00 00
T43E90 000:352.806 - 0.230ms returns 1 (0x1)
T43E90 000:352.816 JLINK_WriteMemEx(0xE0001000, 0x0000001C Bytes, Flags = 0x02000004)
T43E90 000:352.825   Data:  01 00 00 00 00 00 00 00 00 00 00 00 00 00 00 00 ...
T43E90 000:352.840   CPU_WriteMem(28 bytes @ 0xE0001000)
T43E90 000:353.134 - 0.322ms returns 0x1C
T43E90 000:353.147 JLINK_Halt()
T43E90 000:353.155 - 0.012ms returns 0x00
T43E90 000:353.164 JLINK_IsHalted()
T43E90 000:353.177 - 0.018ms returns TRUE
T43E90 000:354.671 JLINK_WriteMem(0x20000000, 0xA14 Bytes, ...)
T43E90 000:354.684   Data:  00 BE 0A E0 0D 78 2D 06 68 40 08 24 40 00 00 D3 ...
T43E90 000:354.974   CPU_WriteMem(2580 bytes @ 0x20000000)
T43E90 000:362.035 - 7.386ms returns 0xA14
T43E90 000:362.104 JLINK_HasError()
T43E90 000:362.116 JLINK_WriteReg(R0, 0x00000000)
T43E90 000:362.130   CPU_ReadMem(4 bytes @ 0xE000EE08)
T43E90 000:362.371 - 0.260ms returns 0
T43E90 000:362.381 JLINK_WriteReg(R1, 0x00B71B00)
T43E90 000:362.391 - 0.013ms returns 0
T43E90 000:362.400 JLINK_WriteReg(R2, 0x00000001)
T43E90 000:362.409 - 0.013ms returns 0
T43E90 000:362.418 JLINK_WriteReg(R3, 0x00000000)
T43E90 000:362.427 - 0.013ms returns 0
T43E90 000:362.436 JLINK_WriteReg(R4, 0x00000000)
T43E90 000:362.445 - 0.013ms returns 0
T43E90 000:362.454 JLINK_WriteReg(R5, 0x00000000)
T43E90 000:362.463 - 0.012ms returns 0
T43E90 000:362.472 JLINK_WriteReg(R6, 0x00000000)
T43E90 000:362.480 - 0.013ms returns 0
T43E90 000:362.489 JLINK_WriteReg(R7, 0x00000000)
T43E90 000:362.498 - 0.013ms returns 0
T43E90 000:362.507 JLINK_WriteReg(R8, 0x00000000)
T43E90 000:362.528 - 0.024ms returns 0
T43E90 000:362.537 JLINK_WriteReg(R9, 0x200009F8)
T43E90 000:362.545 - 0.012ms returns 0
T43E90 000:362.554 JLINK_WriteReg(R10, 0x00000000)
T43E90 000:362.563 - 0.012ms returns 0
T43E90 000:362.572 JLINK_WriteReg(R11, 0x00000000)
T43E90 000:362.581 - 0.012ms returns 0
T43E90 000:362.590 JLINK_WriteReg(R12, 0x00000000)
T43E90 000:362.598 - 0.013ms returns 0
T43E90 000:362.608 JLINK_WriteReg(R13 (SP), 0x20004000)
T43E90 000:362.617 - 0.014ms returns 0
T43E90 000:362.627 JLINK_WriteReg(R14, 0x20000001)
T43E90 000:362.635 - 0.012ms returns 0
T43E90 000:362.644 JLINK_WriteReg(R15 (PC), 0x20000038)
T43E90 000:362.656 - 0.015ms returns 0
T43E90 000:362.665 JLINK_WriteReg(XPSR, 0x01000000)
T43E90 000:362.674 - 0.013ms returns 0
T43E90 000:362.683 JLINK_WriteReg(MSP, 0x20004000)
T43E90 000:362.692 - 0.012ms returns 0
T43E90 000:362.701 JLINK_WriteReg(PSP, 0x20004000)
T43E90 000:362.709 - 0.013ms returns 0
T43E90 000:362.719 JLINK_WriteReg(CFBP, 0x00000000)
T43E90 000:362.727 - 0.013ms returns 0
T43E90 000:362.737 JLINK_SetBPEx(Addr = 0x20000000, Type = 0xFFFFFFF2)
T43E90 000:362.746 - 0.013ms returns 0x00000001
T43E90 000:362.756 JLINK_Go()
T43E90 000:362.773   CPU_WriteMem(4 bytes @ 0xE0002000)
T43E90 000:363.001   CPU_ReadMem(4 bytes @ 0xE0001000)
T43E90 000:363.183   CPU_WriteMem(4 bytes @ 0xE0002008)
T43E90 000:363.196   CPU_WriteMem(4 bytes @ 0xE000200C)
T43E90 000:363.209   CPU_WriteMem(4 bytes @ 0xE0002010)
T43E90 000:363.222   CPU_WriteMem(4 bytes @ 0xE0002014)
T43E90 000:363.234   CPU_WriteMem(4 bytes @ 0xE0002018)
T43E90 000:363.246   CPU_WriteMem(4 bytes @ 0xE000201C)
T43E90 000:363.259   CPU_WriteMem(4 bytes @ 0xE0002020)
T43E90 000:363.271   CPU_WriteMem(4 bytes @ 0xE0002024)
T43E90 000:364.301   CPU_WriteMem(4 bytes @ 0xE0001004)
T43E90 000:365.847 - 3.095ms
T43E90 000:365.857 JLINK_IsHalted()
T43E90 000:366.033 - 0.180ms returns FALSE
T43E90 000:366.043 JLINK_HasError()
T43E90 000:417.757 JLINK_IsHalted()
T43E90 000:419.231 - 1.496ms returns TRUE
T43E90 000:419.268 JLINK_ReadReg(R15 (PC))
T43E90 000:419.295   CPU_ReadMem(4 bytes @ 0xE000EE08)
T43E90 000:419.526 - 0.268ms returns 0x20000000
T43E90 000:419.548 JLINK_ClrBPEx(BPHandle = 0x00000001)
T43E90 000:419.565 - 0.023ms returns 0x00
T43E90 000:419.582 JLINK_ReadReg(R0)
T43E90 000:419.599 - 0.024ms returns 0x00000000
T43E90 000:419.647 JLINK_HasError()
T43E90 000:419.664 JLINK_WriteReg(R0, 0x00000000)
T43E90 000:419.681 - 0.024ms returns 0
T43E90 000:419.697 JLINK_WriteReg(R1, 0x00001000)
T43E90 000:419.708 - 0.015ms returns 0
T43E90 000:419.719 JLINK_WriteReg(R2, 0x000000FF)
T43E90 000:419.731 - 0.018ms returns 0
T43E90 000:419.744 JLINK_WriteReg(R3, 0x00000000)
T43E90 000:419.768 - 0.034ms returns 0
T43E90 000:419.786 JLINK_WriteReg(R4, 0x00000000)
T43E90 000:419.798 - 0.017ms returns 0
T43E90 000:419.809 JLINK_WriteReg(R5, 0x00000000)
T43E90 000:419.822 - 0.018ms returns 0
T43E90 000:419.833 JLINK_WriteReg(R6, 0x00000000)
T43E90 000:419.844 - 0.015ms returns 0
T43E90 000:419.854 JLINK_WriteReg(R7, 0x00000000)
T43E90 000:419.865 - 0.016ms returns 0
T43E90 000:419.876 JLINK_WriteReg(R8, 0x00000000)
T43E90 000:419.888 - 0.017ms returns 0
T43E90 000:419.899 JLINK_WriteReg(R9, 0x200009F8)
T43E90 000:419.909 - 0.014ms returns 0
T43E90 000:419.919 JLINK_WriteReg(R10, 0x00000000)
T43E90 000:419.929 - 0.014ms returns 0
T43E90 000:419.939 JLINK_WriteReg(R11, 0x00000000)
T43E90 000:419.952 - 0.019ms returns 0
T43E90 000:419.965 JLINK_WriteReg(R12, 0x00000000)
T43E90 000:419.978 - 0.019ms returns 0
T43E90 000:419.992 JLINK_WriteReg(R13 (SP), 0x20004000)
T43E90 000:420.006 - 0.021ms returns 0
T43E90 000:420.021 JLINK_WriteReg(R14, 0x20000001)
T43E90 000:420.034 - 0.021ms returns 0
T43E90 000:420.050 JLINK_WriteReg(R15 (PC), 0x20000020)
T43E90 000:420.065 - 0.021ms returns 0
T43E90 000:420.079 JLINK_WriteReg(XPSR, 0x01000000)
T43E90 000:420.095 - 0.022ms returns 0
T43E90 000:420.110 JLINK_WriteReg(MSP, 0x20004000)
T43E90 000:420.125 - 0.021ms returns 0
T43E90 000:420.139 JLINK_WriteReg(PSP, 0x20004000)
T43E90 000:420.154 - 0.024ms returns 0
T43E90 000:420.172 JLINK_WriteReg(CFBP, 0x00000000)
T43E90 000:420.187 - 0.021ms returns 0
T43E90 000:420.201 JLINK_SetBPEx(Addr = 0x20000000, Type = 0xFFFFFFF2)
T43E90 000:420.216 - 0.022ms returns 0x00000002
T43E90 000:420.232 JLINK_Go()
T43E90 000:420.251   CPU_WriteMem(4 bytes @ 0xE0002000)
T43E90 000:420.532   CPU_ReadMem(4 bytes @ 0xE0001000)
T43E90 000:422.018 - 1.804ms
T43E90 000:422.048 JLINK_IsHalted()
T43E90 000:423.380 - 1.343ms returns TRUE
T43E90 000:423.400 JLINK_ReadReg(R15 (PC))
T43E90 000:423.412   CPU_ReadMem(4 bytes @ 0xE000EE08)
T43E90 000:423.604 - 0.209ms returns 0x20000000
T43E90 000:423.615 JLINK_ClrBPEx(BPHandle = 0x00000002)
T43E90 000:423.624 - 0.013ms returns 0x00
T43E90 000:423.633 JLINK_ReadReg(R0)
T43E90 000:423.643 - 0.013ms returns 0x00000001
T43E90 000:423.653 JLINK_HasError()
T43E90 000:423.663 JLINK_WriteReg(R0, 0x00000000)
T43E90 000:423.672 - 0.013ms returns 0
T43E90 000:423.682 JLINK_WriteReg(R1, 0x00001000)
T43E90 000:423.691 - 0.013ms returns 0
T43E90 000:423.700 JLINK_WriteReg(R2, 0x000000FF)
T43E90 000:423.708 - 0.012ms returns 0
T43E90 000:423.717 JLINK_WriteReg(R3, 0x00000000)
T43E90 000:423.727 - 0.014ms returns 0
T43E90 000:423.737 JLINK_WriteReg(R4, 0x00000000)
T43E90 000:423.745 - 0.013ms returns 0
T43E90 000:423.754 JLINK_WriteReg(R5, 0x00000000)
T43E90 000:423.763 - 0.012ms returns 0
T43E90 000:423.772 JLINK_WriteReg(R6, 0x00000000)
T43E90 000:423.781 - 0.012ms returns 0
T43E90 000:423.790 JLINK_WriteReg(R7, 0x00000000)
T43E90 000:423.799 - 0.012ms returns 0
T43E90 000:423.808 JLINK_WriteReg(R8, 0x00000000)
T43E90 000:423.816 - 0.012ms returns 0
T43E90 000:423.825 JLINK_WriteReg(R9, 0x200009F8)
T43E90 000:423.834 - 0.012ms returns 0
T43E90 000:423.843 JLINK_WriteReg(R10, 0x00000000)
T43E90 000:423.852 - 0.012ms returns 0
T43E90 000:423.861 JLINK_WriteReg(R11, 0x00000000)
T43E90 000:423.870 - 0.012ms returns 0
T43E90 000:423.879 JLINK_WriteReg(R12, 0x00000000)
T43E90 000:423.887 - 0.013ms returns 0
T43E90 000:423.896 JLINK_WriteReg(R13 (SP), 0x20004000)
T43E90 000:423.906 - 0.013ms returns 0
T43E90 000:423.915 JLINK_WriteReg(R14, 0x20000001)
T43E90 000:423.923 - 0.013ms returns 0
T43E90 000:423.933 JLINK_WriteReg(R15 (PC), 0x20000108)
T43E90 000:423.941 - 0.013ms returns 0
T43E90 000:423.950 JLINK_WriteReg(XPSR, 0x01000000)
T43E90 000:423.959 - 0.013ms returns 0
T43E90 000:423.968 JLINK_WriteReg(MSP, 0x20004000)
T43E90 000:423.977 - 0.012ms returns 0
T43E90 000:423.986 JLINK_WriteReg(PSP, 0x20004000)
T43E90 000:423.995 - 0.012ms returns 0
T43E90 000:424.004 JLINK_WriteReg(CFBP, 0x00000000)
T43E90 000:424.012 - 0.016ms returns 0
T43E90 000:424.028 JLINK_SetBPEx(Addr = 0x20000000, Type = 0xFFFFFFF2)
T43E90 000:424.037 - 0.013ms returns 0x00000003
T43E90 000:424.046 JLINK_Go()
T43E90 000:424.057   CPU_WriteMem(4 bytes @ 0xE0002000)
T43E90 000:424.269   CPU_ReadMem(4 bytes @ 0xE0001000)
T43E90 000:425.789 - 1.759ms
T43E90 000:425.817 JLINK_IsHalted()
T43E90 000:426.017 - 0.213ms returns FALSE
T43E90 000:426.041 JLINK_HasError()
T43E90 000:427.736 JLINK_IsHalted()
T43E90 000:427.943 - 0.212ms returns FALSE
T43E90 000:427.955 JLINK_HasError()
T43E90 000:429.732 JLINK_IsHalted()
T43E90 000:429.975 - 0.248ms returns FALSE
T43E90 000:429.986 JLINK_HasError()
T43E90 000:431.734 JLINK_IsHalted()
T43E90 000:431.986 - 0.263ms returns FALSE
T43E90 000:432.007 JLINK_HasError()
T43E90 000:433.737 JLINK_IsHalted()
T43E90 000:433.950 - 0.217ms returns FALSE
T43E90 000:433.962 JLINK_HasError()
T43E90 000:435.741 JLINK_IsHalted()
T43E90 000:435.941 - 0.210ms returns FALSE
T43E90 000:435.958 JLINK_HasError()
T43E90 000:437.731 JLINK_IsHalted()
T43E90 000:437.928 - 0.202ms returns FALSE
T43E90 000:437.940 JLINK_HasError()
T43E90 000:439.733 JLINK_IsHalted()
T43E90 000:439.935 - 0.208ms returns FALSE
T43E90 000:439.946 JLINK_HasError()
T43E90 000:441.740 JLINK_IsHalted()
T43E90 000:441.991 - 0.269ms returns FALSE
T43E90 000:442.019 JLINK_HasError()
T43E90 000:443.744 JLINK_IsHalted()
T43E90 000:444.004 - 0.277ms returns FALSE
T43E90 000:444.029 JLINK_HasError()
T43E90 000:445.749 JLINK_IsHalted()
T43E90 000:445.999 - 0.255ms returns FALSE
T43E90 000:446.011 JLINK_HasError()
T43E90 000:447.737 JLINK_IsHalted()
T43E90 000:449.030 - 1.304ms returns TRUE
T43E90 000:449.049 JLINK_ReadReg(R15 (PC))
T43E90 000:449.071   CPU_ReadMem(4 bytes @ 0xE000EE08)
T43E90 000:449.264 - 0.219ms returns 0x20000000
T43E90 000:449.275 JLINK_ClrBPEx(BPHandle = 0x00000003)
T43E90 000:449.285 - 0.014ms returns 0x00
T43E90 000:449.295 JLINK_ReadReg(R0)
T43E90 000:449.304 - 0.013ms returns 0x00000000
T43E90 000:449.378 JLINK_HasError()
T43E90 000:449.388 JLINK_WriteReg(R0, 0x00001000)
T43E90 000:449.398 - 0.014ms returns 0
T43E90 000:449.408 JLINK_WriteReg(R1, 0x00001000)
T43E90 000:449.416 - 0.013ms returns 0
T43E90 000:449.426 JLINK_WriteReg(R2, 0x000000FF)
T43E90 000:449.434 - 0.012ms returns 0
T43E90 000:449.443 JLINK_WriteReg(R3, 0x00000000)
T43E90 000:449.452 - 0.012ms returns 0
T43E90 000:449.461 JLINK_WriteReg(R4, 0x00000000)
T43E90 000:449.470 - 0.012ms returns 0
T43E90 000:449.479 JLINK_WriteReg(R5, 0x00000000)
T43E90 000:449.488 - 0.012ms returns 0
T43E90 000:449.497 JLINK_WriteReg(R6, 0x00000000)
T43E90 000:449.506 - 0.012ms returns 0
T43E90 000:449.515 JLINK_WriteReg(R7, 0x00000000)
T43E90 000:449.524 - 0.012ms returns 0
T43E90 000:449.533 JLINK_WriteReg(R8, 0x00000000)
T43E90 000:449.542 - 0.013ms returns 0
T43E90 000:449.551 JLINK_WriteReg(R9, 0x200009F8)
T43E90 000:449.560 - 0.012ms returns 0
T43E90 000:449.569 JLINK_WriteReg(R10, 0x00000000)
T43E90 000:449.578 - 0.013ms returns 0
T43E90 000:449.587 JLINK_WriteReg(R11, 0x00000000)
T43E90 000:449.595 - 0.012ms returns 0
T43E90 000:449.604 JLINK_WriteReg(R12, 0x00000000)
T43E90 000:449.613 - 0.012ms returns 0
T43E90 000:449.622 JLINK_WriteReg(R13 (SP), 0x20004000)
T43E90 000:449.632 - 0.013ms returns 0
T43E90 000:449.641 JLINK_WriteReg(R14, 0x20000001)
T43E90 000:449.650 - 0.012ms returns 0
T43E90 000:449.659 JLINK_WriteReg(R15 (PC), 0x20000020)
T43E90 000:449.668 - 0.013ms returns 0
T43E90 000:449.677 JLINK_WriteReg(XPSR, 0x01000000)
T43E90 000:449.685 - 0.013ms returns 0
T43E90 000:449.695 JLINK_WriteReg(MSP, 0x20004000)
T43E90 000:449.703 - 0.013ms returns 0
T43E90 000:449.713 JLINK_WriteReg(PSP, 0x20004000)
T43E90 000:449.721 - 0.012ms returns 0
T43E90 000:449.731 JLINK_WriteReg(CFBP, 0x00000000)
T43E90 000:449.740 - 0.013ms returns 0
T43E90 000:449.749 JLINK_SetBPEx(Addr = 0x20000000, Type = 0xFFFFFFF2)
T43E90 000:449.759 - 0.014ms returns 0x00000004
T43E90 000:449.769 JLINK_Go()
T43E90 000:449.783   CPU_WriteMem(4 bytes @ 0xE0002000)
T43E90 000:450.001   CPU_ReadMem(4 bytes @ 0xE0001000)
T43E90 000:451.407 - 1.649ms
T43E90 000:451.427 JLINK_IsHalted()
T43E90 000:452.660 - 1.238ms returns TRUE
T43E90 000:452.673 JLINK_ReadReg(R15 (PC))
T43E90 000:452.684   CPU_ReadMem(4 bytes @ 0xE000EE08)
T43E90 000:452.878 - 0.219ms returns 0x20000000
T43E90 000:452.900 JLINK_ClrBPEx(BPHandle = 0x00000004)
T43E90 000:452.911 - 0.015ms returns 0x00
T43E90 000:452.922 JLINK_ReadReg(R0)
T43E90 000:452.932 - 0.014ms returns 0x00000001
T43E90 000:452.942 JLINK_HasError()
T43E90 000:452.981 JLINK_WriteReg(R0, 0x00001000)
T43E90 000:452.992 - 0.014ms returns 0
T43E90 000:453.001 JLINK_WriteReg(R1, 0x00001000)
T43E90 000:453.010 - 0.013ms returns 0
T43E90 000:453.019 JLINK_WriteReg(R2, 0x000000FF)
T43E90 000:453.028 - 0.012ms returns 0
T43E90 000:453.037 JLINK_WriteReg(R3, 0x00000000)
T43E90 000:453.045 - 0.012ms returns 0
T43E90 000:453.054 JLINK_WriteReg(R4, 0x00000000)
T43E90 000:453.063 - 0.013ms returns 0
T43E90 000:453.072 JLINK_WriteReg(R5, 0x00000000)
T43E90 000:453.081 - 0.012ms returns 0
T43E90 000:453.090 JLINK_WriteReg(R6, 0x00000000)
T43E90 000:453.099 - 0.012ms returns 0
T43E90 000:453.108 JLINK_WriteReg(R7, 0x00000000)
T43E90 000:453.116 - 0.012ms returns 0
T43E90 000:453.125 JLINK_WriteReg(R8, 0x00000000)
T43E90 000:453.134 - 0.013ms returns 0
T43E90 000:453.143 JLINK_WriteReg(R9, 0x200009F8)
T43E90 000:453.152 - 0.012ms returns 0
T43E90 000:453.161 JLINK_WriteReg(R10, 0x00000000)
T43E90 000:453.170 - 0.013ms returns 0
T43E90 000:453.179 JLINK_WriteReg(R11, 0x00000000)
T43E90 000:453.187 - 0.012ms returns 0
T43E90 000:453.197 JLINK_WriteReg(R12, 0x00000000)
T43E90 000:453.205 - 0.012ms returns 0
T43E90 000:453.214 JLINK_WriteReg(R13 (SP), 0x20004000)
T43E90 000:453.223 - 0.013ms returns 0
T43E90 000:453.233 JLINK_WriteReg(R14, 0x20000001)
T43E90 000:453.241 - 0.012ms returns 0
T43E90 000:453.250 JLINK_WriteReg(R15 (PC), 0x20000108)
T43E90 000:453.259 - 0.013ms returns 0
T43E90 000:453.269 JLINK_WriteReg(XPSR, 0x01000000)
T43E90 000:453.277 - 0.013ms returns 0
T43E90 000:453.287 JLINK_WriteReg(MSP, 0x20004000)
T43E90 000:453.296 - 0.013ms returns 0
T43E90 000:453.305 JLINK_WriteReg(PSP, 0x20004000)
T43E90 000:453.314 - 0.012ms returns 0
T43E90 000:453.323 JLINK_WriteReg(CFBP, 0x00000000)
T43E90 000:453.332 - 0.012ms returns 0
T43E90 000:453.341 JLINK_SetBPEx(Addr = 0x20000000, Type = 0xFFFFFFF2)
T43E90 000:453.350 - 0.013ms returns 0x00000005
T43E90 000:453.359 JLINK_Go()
T43E90 000:453.370   CPU_WriteMem(4 bytes @ 0xE0002000)
T43E90 000:453.614   CPU_ReadMem(4 bytes @ 0xE0001000)
T43E90 000:455.241 - 1.895ms
T43E90 000:455.264 JLINK_IsHalted()
T43E90 000:455.486 - 0.235ms returns FALSE
T43E90 000:455.507 JLINK_HasError()
T43E90 000:456.733 JLINK_IsHalted()
T43E90 000:456.929 - 0.201ms returns FALSE
T43E90 000:456.940 JLINK_HasError()
T43E90 000:458.733 JLINK_IsHalted()
T43E90 000:458.932 - 0.205ms returns FALSE
T43E90 000:458.944 JLINK_HasError()
T43E90 000:460.730 JLINK_IsHalted()
T43E90 000:460.904 - 0.178ms returns FALSE
T43E90 000:460.914 JLINK_HasError()
T43E90 000:462.375 JLINK_IsHalted()
T43E90 000:462.604 - 0.244ms returns FALSE
T43E90 000:462.628 JLINK_HasError()
T43E90 000:464.369 JLINK_IsHalted()
T43E90 000:464.586 - 0.231ms returns FALSE
T43E90 000:464.608 JLINK_HasError()
T43E90 000:466.356 JLINK_IsHalted()
T43E90 000:466.540 - 0.187ms returns FALSE
T43E90 000:466.550 JLINK_HasError()
T43E90 000:468.357 JLINK_IsHalted()
T43E90 000:468.539 - 0.187ms returns FALSE
T43E90 000:468.550 JLINK_HasError()
T43E90 000:470.366 JLINK_IsHalted()
T43E90 000:470.566 - 0.206ms returns FALSE
T43E90 000:470.578 JLINK_HasError()
T43E90 000:472.358 JLINK_IsHalted()
T43E90 000:472.539 - 0.185ms returns FALSE
T43E90 000:472.549 JLINK_HasError()
T43E90 000:474.363 JLINK_IsHalted()
T43E90 000:474.559 - 0.209ms returns FALSE
T43E90 000:474.580 JLINK_HasError()
T43E90 000:476.364 JLINK_IsHalted()
T43E90 000:477.648 - 1.298ms returns TRUE
T43E90 000:477.680 JLINK_ReadReg(R15 (PC))
T43E90 000:477.721   CPU_ReadMem(4 bytes @ 0xE000EE08)
T43E90 000:477.935 - 0.275ms returns 0x20000000
T43E90 000:477.967 JLINK_ClrBPEx(BPHandle = 0x00000005)
T43E90 000:477.987 - 0.026ms returns 0x00
T43E90 000:478.003 JLINK_ReadReg(R0)
T43E90 000:478.019 - 0.023ms returns 0x00000000
T43E90 000:478.136 JLINK_HasError()
T43E90 000:478.164 JLINK_WriteReg(R0, 0x00002000)
T43E90 000:478.183 - 0.026ms returns 0
T43E90 000:478.197 JLINK_WriteReg(R1, 0x00001000)
T43E90 000:478.209 - 0.017ms returns 0
T43E90 000:478.222 JLINK_WriteReg(R2, 0x000000FF)
T43E90 000:478.233 - 0.017ms returns 0
T43E90 000:478.245 JLINK_WriteReg(R3, 0x00000000)
T43E90 000:478.257 - 0.016ms returns 0
T43E90 000:478.270 JLINK_WriteReg(R4, 0x00000000)
T43E90 000:478.283 - 0.020ms returns 0
T43E90 000:478.297 JLINK_WriteReg(R5, 0x00000000)
T43E90 000:478.311 - 0.020ms returns 0
T43E90 000:478.324 JLINK_WriteReg(R6, 0x00000000)
T43E90 000:478.338 - 0.019ms returns 0
T43E90 000:478.350 JLINK_WriteReg(R7, 0x00000000)
T43E90 000:478.362 - 0.017ms returns 0
T43E90 000:478.375 JLINK_WriteReg(R8, 0x00000000)
T43E90 000:478.388 - 0.018ms returns 0
T43E90 000:478.403 JLINK_WriteReg(R9, 0x200009F8)
T43E90 000:478.416 - 0.020ms returns 0
T43E90 000:478.430 JLINK_WriteReg(R10, 0x00000000)
T43E90 000:478.446 - 0.022ms returns 0
T43E90 000:478.460 JLINK_WriteReg(R11, 0x00000000)
T43E90 000:478.473 - 0.019ms returns 0
T43E90 000:478.486 JLINK_WriteReg(R12, 0x00000000)
T43E90 000:478.500 - 0.019ms returns 0
T43E90 000:478.512 JLINK_WriteReg(R13 (SP), 0x20004000)
T43E90 000:478.527 - 0.020ms returns 0
T43E90 000:478.539 JLINK_WriteReg(R14, 0x20000001)
T43E90 000:478.553 - 0.018ms returns 0
T43E90 000:478.563 JLINK_WriteReg(R15 (PC), 0x20000020)
T43E90 000:478.572 - 0.013ms returns 0
T43E90 000:478.581 JLINK_WriteReg(XPSR, 0x01000000)
T43E90 000:478.590 - 0.013ms returns 0
T43E90 000:478.599 JLINK_WriteReg(MSP, 0x20004000)
T43E90 000:478.608 - 0.012ms returns 0
T43E90 000:478.617 JLINK_WriteReg(PSP, 0x20004000)
T43E90 000:478.626 - 0.012ms returns 0
T43E90 000:478.635 JLINK_WriteReg(CFBP, 0x00000000)
T43E90 000:478.643 - 0.012ms returns 0
T43E90 000:478.653 JLINK_SetBPEx(Addr = 0x20000000, Type = 0xFFFFFFF2)
T43E90 000:478.662 - 0.013ms returns 0x00000006
T43E90 000:478.672 JLINK_Go()
T43E90 000:478.684   CPU_WriteMem(4 bytes @ 0xE0002000)
T43E90 000:478.921   CPU_ReadMem(4 bytes @ 0xE0001000)
T43E90 000:480.363 - 1.696ms
T43E90 000:480.375 JLINK_IsHalted()
T43E90 000:481.579 - 1.209ms returns TRUE
T43E90 000:481.590 JLINK_ReadReg(R15 (PC))
T43E90 000:481.601   CPU_ReadMem(4 bytes @ 0xE000EE08)
T43E90 000:481.788 - 0.202ms returns 0x20000000
T43E90 000:481.799 JLINK_ClrBPEx(BPHandle = 0x00000006)
T43E90 000:481.808 - 0.013ms returns 0x00
T43E90 000:481.817 JLINK_ReadReg(R0)
T43E90 000:481.826 - 0.013ms returns 0x00000001
T43E90 000:481.836 JLINK_HasError()
T43E90 000:481.845 JLINK_WriteReg(R0, 0x00002000)
T43E90 000:481.854 - 0.013ms returns 0
T43E90 000:481.863 JLINK_WriteReg(R1, 0x00001000)
T43E90 000:481.872 - 0.013ms returns 0
T43E90 000:481.881 JLINK_WriteReg(R2, 0x000000FF)
T43E90 000:481.890 - 0.012ms returns 0
T43E90 000:481.899 JLINK_WriteReg(R3, 0x00000000)
T43E90 000:481.908 - 0.012ms returns 0
T43E90 000:481.917 JLINK_WriteReg(R4, 0x00000000)
T43E90 000:481.925 - 0.012ms returns 0
T43E90 000:481.934 JLINK_WriteReg(R5, 0x00000000)
T43E90 000:481.943 - 0.012ms returns 0
T43E90 000:481.952 JLINK_WriteReg(R6, 0x00000000)
T43E90 000:481.961 - 0.012ms returns 0
T43E90 000:481.970 JLINK_WriteReg(R7, 0x00000000)
T43E90 000:481.978 - 0.012ms returns 0
T43E90 000:481.987 JLINK_WriteReg(R8, 0x00000000)
T43E90 000:481.996 - 0.012ms returns 0
T43E90 000:482.005 JLINK_WriteReg(R9, 0x200009F8)
T43E90 000:482.014 - 0.012ms returns 0
T43E90 000:482.024 JLINK_WriteReg(R10, 0x00000000)
T43E90 000:482.033 - 0.013ms returns 0
T43E90 000:482.042 JLINK_WriteReg(R11, 0x00000000)
T43E90 000:482.052 - 0.014ms returns 0
T43E90 000:482.061 JLINK_WriteReg(R12, 0x00000000)
T43E90 000:482.073 - 0.018ms returns 0
T43E90 000:482.084 JLINK_WriteReg(R13 (SP), 0x20004000)
T43E90 000:482.093 - 0.013ms returns 0
T43E90 000:482.102 JLINK_WriteReg(R14, 0x20000001)
T43E90 000:482.111 - 0.012ms returns 0
T43E90 000:482.120 JLINK_WriteReg(R15 (PC), 0x20000108)
T43E90 000:482.129 - 0.012ms returns 0
T43E90 000:482.138 JLINK_WriteReg(XPSR, 0x01000000)
T43E90 000:482.147 - 0.012ms returns 0
T43E90 000:482.156 JLINK_WriteReg(MSP, 0x20004000)
T43E90 000:482.164 - 0.012ms returns 0
T43E90 000:482.173 JLINK_WriteReg(PSP, 0x20004000)
T43E90 000:482.182 - 0.012ms returns 0
T43E90 000:482.191 JLINK_WriteReg(CFBP, 0x00000000)
T43E90 000:482.200 - 0.012ms returns 0
T43E90 000:482.209 JLINK_SetBPEx(Addr = 0x20000000, Type = 0xFFFFFFF2)
T43E90 000:482.218 - 0.013ms returns 0x00000007
T43E90 000:482.227 JLINK_Go()
T43E90 000:482.237   CPU_WriteMem(4 bytes @ 0xE0002000)
T43E90 000:482.492   CPU_ReadMem(4 bytes @ 0xE0001000)
T43E90 000:483.906 - 1.685ms
T43E90 000:483.918 JLINK_IsHalted()
T43E90 000:484.095 - 0.184ms returns FALSE
T43E90 000:484.109 JLINK_HasError()
T43E90 000:486.025 JLINK_IsHalted()
T43E90 000:486.240 - 0.223ms returns FALSE
T43E90 000:486.255 JLINK_HasError()
T43E90 000:488.026 JLINK_IsHalted()
T43E90 000:488.239 - 0.220ms returns FALSE
T43E90 000:488.252 JLINK_HasError()
T43E90 000:490.026 JLINK_IsHalted()
T43E90 000:490.239 - 0.218ms returns FALSE
T43E90 000:490.252 JLINK_HasError()
T43E90 000:492.040 JLINK_IsHalted()
T43E90 000:492.375 - 0.355ms returns FALSE
T43E90 000:492.406 JLINK_HasError()
T43E90 000:494.031 JLINK_IsHalted()
T43E90 000:494.244 - 0.225ms returns FALSE
T43E90 000:494.264 JLINK_HasError()
T43E90 000:496.026 JLINK_IsHalted()
T43E90 000:496.239 - 0.217ms returns FALSE
T43E90 000:496.251 JLINK_HasError()
T43E90 000:498.025 JLINK_IsHalted()
T43E90 000:498.204 - 0.184ms returns FALSE
T43E90 000:498.214 JLINK_HasError()
T43E90 000:500.036 JLINK_IsHalted()
T43E90 000:500.242 - 0.211ms returns FALSE
T43E90 000:500.253 JLINK_HasError()
T43E90 000:502.030 JLINK_IsHalted()
T43E90 000:502.242 - 0.227ms returns FALSE
T43E90 000:502.266 JLINK_HasError()
T43E90 000:504.036 JLINK_IsHalted()
T43E90 000:504.265 - 0.241ms returns FALSE
T43E90 000:504.285 JLINK_HasError()
T43E90 000:506.027 JLINK_IsHalted()
T43E90 000:507.380 - 1.359ms returns TRUE
T43E90 000:507.393 JLINK_ReadReg(R15 (PC))
T43E90 000:507.405   CPU_ReadMem(4 bytes @ 0xE000EE08)
T43E90 000:507.597 - 0.209ms returns 0x20000000
T43E90 000:507.607 JLINK_ClrBPEx(BPHandle = 0x00000007)
T43E90 000:507.617 - 0.013ms returns 0x00
T43E90 000:507.626 JLINK_ReadReg(R0)
T43E90 000:507.635 - 0.013ms returns 0x00000000
T43E90 000:507.678 JLINK_HasError()
T43E90 000:507.688 JLINK_WriteReg(R0, 0x00003000)
T43E90 000:507.697 - 0.013ms returns 0
T43E90 000:507.706 JLINK_WriteReg(R1, 0x00001000)
T43E90 000:507.715 - 0.012ms returns 0
T43E90 000:507.724 JLINK_WriteReg(R2, 0x000000FF)
T43E90 000:507.733 - 0.013ms returns 0
T43E90 000:507.742 JLINK_WriteReg(R3, 0x00000000)
T43E90 000:507.751 - 0.013ms returns 0
T43E90 000:507.760 JLINK_WriteReg(R4, 0x00000000)
T43E90 000:507.769 - 0.012ms returns 0
T43E90 000:507.778 JLINK_WriteReg(R5, 0x00000000)
T43E90 000:507.787 - 0.012ms returns 0
T43E90 000:507.796 JLINK_WriteReg(R6, 0x00000000)
T43E90 000:507.804 - 0.012ms returns 0
T43E90 000:507.813 JLINK_WriteReg(R7, 0x00000000)
T43E90 000:507.822 - 0.012ms returns 0
T43E90 000:507.831 JLINK_WriteReg(R8, 0x00000000)
T43E90 000:507.841 - 0.014ms returns 0
T43E90 000:507.850 JLINK_WriteReg(R9, 0x200009F8)
T43E90 000:507.859 - 0.012ms returns 0
T43E90 000:507.868 JLINK_WriteReg(R10, 0x00000000)
T43E90 000:507.877 - 0.012ms returns 0
T43E90 000:507.886 JLINK_WriteReg(R11, 0x00000000)
T43E90 000:507.896 - 0.014ms returns 0
T43E90 000:507.905 JLINK_WriteReg(R12, 0x00000000)
T43E90 000:507.913 - 0.013ms returns 0
T43E90 000:507.923 JLINK_WriteReg(R13 (SP), 0x20004000)
T43E90 000:507.932 - 0.013ms returns 0
T43E90 000:507.941 JLINK_WriteReg(R14, 0x20000001)
T43E90 000:507.950 - 0.016ms returns 0
T43E90 000:507.965 JLINK_WriteReg(R15 (PC), 0x20000020)
T43E90 000:507.973 - 0.013ms returns 0
T43E90 000:507.982 JLINK_WriteReg(XPSR, 0x01000000)
T43E90 000:507.991 - 0.013ms returns 0
T43E90 000:508.000 JLINK_WriteReg(MSP, 0x20004000)
T43E90 000:508.009 - 0.012ms returns 0
T43E90 000:508.018 JLINK_WriteReg(PSP, 0x20004000)
T43E90 000:508.028 - 0.014ms returns 0
T43E90 000:508.037 JLINK_WriteReg(CFBP, 0x00000000)
T43E90 000:508.049 - 0.019ms returns 0
T43E90 000:508.064 JLINK_SetBPEx(Addr = 0x20000000, Type = 0xFFFFFFF2)
T43E90 000:508.083 - 0.030ms returns 0x00000008
T43E90 000:508.105 JLINK_Go()
T43E90 000:508.144   CPU_WriteMem(4 bytes @ 0xE0002000)
T43E90 000:508.518   CPU_ReadMem(4 bytes @ 0xE0001000)
T43E90 000:510.108 - 2.028ms
T43E90 000:510.145 JLINK_IsHalted()
T43E90 000:511.460 - 1.342ms returns TRUE
T43E90 000:511.499 JLINK_ReadReg(R15 (PC))
T43E90 000:511.521   CPU_ReadMem(4 bytes @ 0xE000EE08)
T43E90 000:511.736 - 0.253ms returns 0x20000000
T43E90 000:511.761 JLINK_ClrBPEx(BPHandle = 0x00000008)
T43E90 000:511.774 - 0.016ms returns 0x00
T43E90 000:511.784 JLINK_ReadReg(R0)
T43E90 000:511.794 - 0.015ms returns 0x00000001
T43E90 000:511.805 JLINK_HasError()
T43E90 000:511.815 JLINK_WriteReg(R0, 0x00003000)
T43E90 000:511.825 - 0.013ms returns 0
T43E90 000:511.834 JLINK_WriteReg(R1, 0x00001000)
T43E90 000:511.843 - 0.012ms returns 0
T43E90 000:511.852 JLINK_WriteReg(R2, 0x000000FF)
T43E90 000:511.861 - 0.013ms returns 0
T43E90 000:511.870 JLINK_WriteReg(R3, 0x00000000)
T43E90 000:511.879 - 0.016ms returns 0
T43E90 000:511.893 JLINK_WriteReg(R4, 0x00000000)
T43E90 000:511.907 - 0.019ms returns 0
T43E90 000:511.919 JLINK_WriteReg(R5, 0x00000000)
T43E90 000:511.928 - 0.013ms returns 0
T43E90 000:511.937 JLINK_WriteReg(R6, 0x00000000)
T43E90 000:511.946 - 0.013ms returns 0
T43E90 000:511.955 JLINK_WriteReg(R7, 0x00000000)
T43E90 000:511.964 - 0.012ms returns 0
T43E90 000:511.973 JLINK_WriteReg(R8, 0x00000000)
T43E90 000:511.982 - 0.013ms returns 0
T43E90 000:511.991 JLINK_WriteReg(R9, 0x200009F8)
T43E90 000:512.000 - 0.012ms returns 0
T43E90 000:512.009 JLINK_WriteReg(R10, 0x00000000)
T43E90 000:512.018 - 0.014ms returns 0
T43E90 000:512.029 JLINK_WriteReg(R11, 0x00000000)
T43E90 000:512.040 - 0.016ms returns 0
T43E90 000:512.050 JLINK_WriteReg(R12, 0x00000000)
T43E90 000:512.059 - 0.013ms returns 0
T43E90 000:512.068 JLINK_WriteReg(R13 (SP), 0x20004000)
T43E90 000:512.078 - 0.013ms returns 0
T43E90 000:512.087 JLINK_WriteReg(R14, 0x20000001)
T43E90 000:512.095 - 0.013ms returns 0
T43E90 000:512.105 JLINK_WriteReg(R15 (PC), 0x20000108)
T43E90 000:512.114 - 0.013ms returns 0
T43E90 000:512.125 JLINK_WriteReg(XPSR, 0x01000000)
T43E90 000:512.137 - 0.017ms returns 0
T43E90 000:512.147 JLINK_WriteReg(MSP, 0x20004000)
T43E90 000:512.156 - 0.013ms returns 0
T43E90 000:512.165 JLINK_WriteReg(PSP, 0x20004000)
T43E90 000:512.174 - 0.013ms returns 0
T43E90 000:512.183 JLINK_WriteReg(CFBP, 0x00000000)
T43E90 000:512.192 - 0.013ms returns 0
T43E90 000:512.201 JLINK_SetBPEx(Addr = 0x20000000, Type = 0xFFFFFFF2)
T43E90 000:512.211 - 0.014ms returns 0x00000009
T43E90 000:512.220 JLINK_Go()
T43E90 000:512.233   CPU_WriteMem(4 bytes @ 0xE0002000)
T43E90 000:512.502   CPU_ReadMem(4 bytes @ 0xE0001000)
T43E90 000:513.949 - 1.740ms
T43E90 000:513.968 JLINK_IsHalted()
T43E90 000:514.153 - 0.193ms returns FALSE
T43E90 000:514.170 JLINK_HasError()
T43E90 000:516.028 JLINK_IsHalted()
T43E90 000:516.236 - 0.214ms returns FALSE
T43E90 000:516.250 JLINK_HasError()
T43E90 000:518.031 JLINK_IsHalted()
T43E90 000:518.242 - 0.220ms returns FALSE
T43E90 000:518.257 JLINK_HasError()
T43E90 000:520.048 JLINK_IsHalted()
T43E90 000:520.289 - 0.254ms returns FALSE
T43E90 000:520.309 JLINK_HasError()
T43E90 000:522.028 JLINK_IsHalted()
T43E90 000:522.219 - 0.198ms returns FALSE
T43E90 000:522.233 JLINK_HasError()
T43E90 000:524.045 JLINK_IsHalted()
T43E90 000:524.413 - 0.388ms returns FALSE
T43E90 000:524.443 JLINK_HasError()
T43E90 000:526.033 JLINK_IsHalted()
T43E90 000:526.408 - 0.389ms returns FALSE
T43E90 000:526.429 JLINK_HasError()
T43E90 000:528.028 JLINK_IsHalted()
T43E90 000:528.218 - 0.195ms returns FALSE
T43E90 000:528.229 JLINK_HasError()
T43E90 000:530.029 JLINK_IsHalted()
T43E90 000:530.240 - 0.217ms returns FALSE
T43E90 000:530.253 JLINK_HasError()
T43E90 000:532.024 JLINK_IsHalted()
T43E90 000:532.200 - 0.180ms returns FALSE
T43E90 000:532.210 JLINK_HasError()
T43E90 000:534.027 JLINK_IsHalted()
T43E90 000:534.243 - 0.230ms returns FALSE
T43E90 000:534.264 JLINK_HasError()
T43E90 000:536.028 JLINK_IsHalted()
T43E90 000:537.235 - 1.211ms returns TRUE
T43E90 000:537.246 JLINK_ReadReg(R15 (PC))
T43E90 000:537.258   CPU_ReadMem(4 bytes @ 0xE000EE08)
T43E90 000:537.509 - 0.267ms returns 0x20000000
T43E90 000:537.519 JLINK_ClrBPEx(BPHandle = 0x00000009)
T43E90 000:537.529 - 0.013ms returns 0x00
T43E90 000:537.538 JLINK_ReadReg(R0)
T43E90 000:537.547 - 0.013ms returns 0x00000000
T43E90 000:537.588 JLINK_HasError()
T43E90 000:537.597 JLINK_WriteReg(R0, 0x00004000)
T43E90 000:537.607 - 0.013ms returns 0
T43E90 000:537.616 JLINK_WriteReg(R1, 0x00001000)
T43E90 000:537.625 - 0.013ms returns 0
T43E90 000:537.634 JLINK_WriteReg(R2, 0x000000FF)
T43E90 000:537.643 - 0.013ms returns 0
T43E90 000:537.652 JLINK_WriteReg(R3, 0x00000000)
T43E90 000:537.660 - 0.012ms returns 0
T43E90 000:537.670 JLINK_WriteReg(R4, 0x00000000)
T43E90 000:537.678 - 0.012ms returns 0
T43E90 000:537.687 JLINK_WriteReg(R5, 0x00000000)
T43E90 000:537.696 - 0.012ms returns 0
T43E90 000:537.705 JLINK_WriteReg(R6, 0x00000000)
T43E90 000:537.714 - 0.013ms returns 0
T43E90 000:537.723 JLINK_WriteReg(R7, 0x00000000)
T43E90 000:537.732 - 0.012ms returns 0
T43E90 000:537.741 JLINK_WriteReg(R8, 0x00000000)
T43E90 000:537.749 - 0.012ms returns 0
T43E90 000:537.758 JLINK_WriteReg(R9, 0x200009F8)
T43E90 000:537.767 - 0.012ms returns 0
T43E90 000:537.776 JLINK_WriteReg(R10, 0x00000000)
T43E90 000:537.785 - 0.013ms returns 0
T43E90 000:537.794 JLINK_WriteReg(R11, 0x00000000)
T43E90 000:537.803 - 0.013ms returns 0
T43E90 000:537.812 JLINK_WriteReg(R12, 0x00000000)
T43E90 000:537.821 - 0.012ms returns 0
T43E90 000:537.830 JLINK_WriteReg(R13 (SP), 0x20004000)
T43E90 000:537.839 - 0.013ms returns 0
T43E90 000:537.848 JLINK_WriteReg(R14, 0x20000001)
T43E90 000:537.857 - 0.012ms returns 0
T43E90 000:537.866 JLINK_WriteReg(R15 (PC), 0x20000020)
T43E90 000:537.875 - 0.012ms returns 0
T43E90 000:537.884 JLINK_WriteReg(XPSR, 0x01000000)
T43E90 000:537.893 - 0.013ms returns 0
T43E90 000:537.902 JLINK_WriteReg(MSP, 0x20004000)
T43E90 000:537.910 - 0.012ms returns 0
T43E90 000:537.919 JLINK_WriteReg(PSP, 0x20004000)
T43E90 000:537.928 - 0.012ms returns 0
T43E90 000:537.937 JLINK_WriteReg(CFBP, 0x00000000)
T43E90 000:537.946 - 0.012ms returns 0
T43E90 000:537.955 JLINK_SetBPEx(Addr = 0x20000000, Type = 0xFFFFFFF2)
T43E90 000:537.965 - 0.013ms returns 0x0000000A
T43E90 000:537.974 JLINK_Go()
T43E90 000:537.985   CPU_WriteMem(4 bytes @ 0xE0002000)
T43E90 000:538.235   CPU_ReadMem(4 bytes @ 0xE0001000)
T43E90 000:539.765 - 1.811ms
T43E90 000:539.792 JLINK_IsHalted()
T43E90 000:541.011 - 1.224ms returns TRUE
T43E90 000:541.023 JLINK_ReadReg(R15 (PC))
T43E90 000:541.036   CPU_ReadMem(4 bytes @ 0xE000EE08)
T43E90 000:541.225 - 0.207ms returns 0x20000000
T43E90 000:541.236 JLINK_ClrBPEx(BPHandle = 0x0000000A)
T43E90 000:541.245 - 0.013ms returns 0x00
T43E90 000:541.255 JLINK_ReadReg(R0)
T43E90 000:541.264 - 0.013ms returns 0x00000001
T43E90 000:541.274 JLINK_HasError()
T43E90 000:541.284 JLINK_WriteReg(R0, 0x00004000)
T43E90 000:541.294 - 0.013ms returns 0
T43E90 000:541.303 JLINK_WriteReg(R1, 0x00001000)
T43E90 000:541.312 - 0.012ms returns 0
T43E90 000:541.321 JLINK_WriteReg(R2, 0x000000FF)
T43E90 000:541.329 - 0.012ms returns 0
T43E90 000:541.338 JLINK_WriteReg(R3, 0x00000000)
T43E90 000:541.347 - 0.013ms returns 0
T43E90 000:541.357 JLINK_WriteReg(R4, 0x00000000)
T43E90 000:541.365 - 0.012ms returns 0
T43E90 000:541.374 JLINK_WriteReg(R5, 0x00000000)
T43E90 000:541.396 - 0.029ms returns 0
T43E90 000:541.409 JLINK_WriteReg(R6, 0x00000000)
T43E90 000:541.418 - 0.013ms returns 0
T43E90 000:541.427 JLINK_WriteReg(R7, 0x00000000)
T43E90 000:541.436 - 0.013ms returns 0
T43E90 000:541.445 JLINK_WriteReg(R8, 0x00000000)
T43E90 000:541.454 - 0.013ms returns 0
T43E90 000:541.463 JLINK_WriteReg(R9, 0x200009F8)
T43E90 000:541.472 - 0.012ms returns 0
T43E90 000:541.481 JLINK_WriteReg(R10, 0x00000000)
T43E90 000:541.490 - 0.013ms returns 0
T43E90 000:541.499 JLINK_WriteReg(R11, 0x00000000)
T43E90 000:541.512 - 0.018ms returns 0
T43E90 000:541.524 JLINK_WriteReg(R12, 0x00000000)
T43E90 000:541.533 - 0.013ms returns 0
T43E90 000:541.543 JLINK_WriteReg(R13 (SP), 0x20004000)
T43E90 000:541.553 - 0.014ms returns 0
T43E90 000:541.562 JLINK_WriteReg(R14, 0x20000001)
T43E90 000:541.571 - 0.013ms returns 0
T43E90 000:541.580 JLINK_WriteReg(R15 (PC), 0x20000108)
T43E90 000:541.589 - 0.013ms returns 0
T43E90 000:541.599 JLINK_WriteReg(XPSR, 0x01000000)
T43E90 000:541.607 - 0.013ms returns 0
T43E90 000:541.616 JLINK_WriteReg(MSP, 0x20004000)
T43E90 000:541.625 - 0.012ms returns 0
T43E90 000:541.634 JLINK_WriteReg(PSP, 0x20004000)
T43E90 000:541.643 - 0.012ms returns 0
T43E90 000:541.652 JLINK_WriteReg(CFBP, 0x00000000)
T43E90 000:541.661 - 0.012ms returns 0
T43E90 000:541.670 JLINK_SetBPEx(Addr = 0x20000000, Type = 0xFFFFFFF2)
T43E90 000:541.679 - 0.013ms returns 0x0000000B
T43E90 000:541.689 JLINK_Go()
T43E90 000:541.701   CPU_WriteMem(4 bytes @ 0xE0002000)
T43E90 000:541.959   CPU_ReadMem(4 bytes @ 0xE0001000)
T43E90 000:543.555 - 1.887ms
T43E90 000:543.584 JLINK_IsHalted()
T43E90 000:543.779 - 0.199ms returns FALSE
T43E90 000:543.789 JLINK_HasError()
T43E90 000:545.025 JLINK_IsHalted()
T43E90 000:545.201 - 0.180ms returns FALSE
T43E90 000:545.212 JLINK_HasError()
T43E90 000:547.028 JLINK_IsHalted()
T43E90 000:547.202 - 0.179ms returns FALSE
T43E90 000:547.212 JLINK_HasError()
T43E90 000:549.026 JLINK_IsHalted()
T43E90 000:549.208 - 0.186ms returns FALSE
T43E90 000:549.218 JLINK_HasError()
T43E90 000:551.029 JLINK_IsHalted()
T43E90 000:551.215 - 0.191ms returns FALSE
T43E90 000:551.226 JLINK_HasError()
T43E90 000:553.030 JLINK_IsHalted()
T43E90 000:553.382 - 0.376ms returns FALSE
T43E90 000:553.420 JLINK_HasError()
T43E90 000:555.037 JLINK_IsHalted()
T43E90 000:555.292 - 0.272ms returns FALSE
T43E90 000:555.323 JLINK_HasError()
T43E90 000:557.032 JLINK_IsHalted()
T43E90 000:557.239 - 0.212ms returns FALSE
T43E90 000:557.251 JLINK_HasError()
T43E90 000:559.035 JLINK_IsHalted()
T43E90 000:559.243 - 0.213ms returns FALSE
T43E90 000:559.254 JLINK_HasError()
T43E90 000:561.026 JLINK_IsHalted()
T43E90 000:561.210 - 0.190ms returns FALSE
T43E90 000:561.222 JLINK_HasError()
T43E90 000:563.026 JLINK_IsHalted()
T43E90 000:563.202 - 0.181ms returns FALSE
T43E90 000:563.213 JLINK_HasError()
T43E90 000:565.029 JLINK_IsHalted()
T43E90 000:566.380 - 1.360ms returns TRUE
T43E90 000:566.395 JLINK_ReadReg(R15 (PC))
T43E90 000:566.409   CPU_ReadMem(4 bytes @ 0xE000EE08)
T43E90 000:566.643 - 0.254ms returns 0x20000000
T43E90 000:566.655 JLINK_ClrBPEx(BPHandle = 0x0000000B)
T43E90 000:566.664 - 0.013ms returns 0x00
T43E90 000:566.673 JLINK_ReadReg(R0)
T43E90 000:566.683 - 0.013ms returns 0x00000000
T43E90 000:566.723 JLINK_HasError()
T43E90 000:566.733 JLINK_WriteReg(R0, 0x00005000)
T43E90 000:566.743 - 0.014ms returns 0
T43E90 000:566.753 JLINK_WriteReg(R1, 0x00001000)
T43E90 000:566.761 - 0.013ms returns 0
T43E90 000:566.771 JLINK_WriteReg(R2, 0x000000FF)
T43E90 000:566.780 - 0.013ms returns 0
T43E90 000:566.789 JLINK_WriteReg(R3, 0x00000000)
T43E90 000:566.797 - 0.013ms returns 0
T43E90 000:566.807 JLINK_WriteReg(R4, 0x00000000)
T43E90 000:566.815 - 0.012ms returns 0
T43E90 000:566.824 JLINK_WriteReg(R5, 0x00000000)
T43E90 000:566.833 - 0.014ms returns 0
T43E90 000:566.844 JLINK_WriteReg(R6, 0x00000000)
T43E90 000:566.853 - 0.013ms returns 0
T43E90 000:566.862 JLINK_WriteReg(R7, 0x00000000)
T43E90 000:566.876 - 0.020ms returns 0
T43E90 000:566.888 JLINK_WriteReg(R8, 0x00000000)
T43E90 000:566.897 - 0.012ms returns 0
T43E90 000:566.906 JLINK_WriteReg(R9, 0x200009F8)
T43E90 000:566.915 - 0.013ms returns 0
T43E90 000:566.924 JLINK_WriteReg(R10, 0x00000000)
T43E90 000:566.933 - 0.013ms returns 0
T43E90 000:566.942 JLINK_WriteReg(R11, 0x00000000)
T43E90 000:566.951 - 0.013ms returns 0
T43E90 000:566.960 JLINK_WriteReg(R12, 0x00000000)
T43E90 000:566.969 - 0.013ms returns 0
T43E90 000:566.978 JLINK_WriteReg(R13 (SP), 0x20004000)
T43E90 000:566.988 - 0.014ms returns 0
T43E90 000:566.998 JLINK_WriteReg(R14, 0x20000001)
T43E90 000:567.006 - 0.013ms returns 0
T43E90 000:567.015 JLINK_WriteReg(R15 (PC), 0x20000020)
T43E90 000:567.026 - 0.014ms returns 0
T43E90 000:567.035 JLINK_WriteReg(XPSR, 0x01000000)
T43E90 000:567.044 - 0.013ms returns 0
T43E90 000:567.054 JLINK_WriteReg(MSP, 0x20004000)
T43E90 000:567.062 - 0.013ms returns 0
T43E90 000:567.071 JLINK_WriteReg(PSP, 0x20004000)
T43E90 000:567.080 - 0.012ms returns 0
T43E90 000:567.090 JLINK_WriteReg(CFBP, 0x00000000)
T43E90 000:567.099 - 0.012ms returns 0
T43E90 000:567.108 JLINK_SetBPEx(Addr = 0x20000000, Type = 0xFFFFFFF2)
T43E90 000:567.117 - 0.013ms returns 0x0000000C
T43E90 000:567.128 JLINK_Go()
T43E90 000:567.140   CPU_WriteMem(4 bytes @ 0xE0002000)
T43E90 000:567.372   CPU_ReadMem(4 bytes @ 0xE0001000)
T43E90 000:568.869 - 1.752ms
T43E90 000:568.888 JLINK_IsHalted()
T43E90 000:570.128 - 1.245ms returns TRUE
T43E90 000:570.139 JLINK_ReadReg(R15 (PC))
T43E90 000:570.150   CPU_ReadMem(4 bytes @ 0xE000EE08)
T43E90 000:570.366 - 0.231ms returns 0x20000000
T43E90 000:570.377 JLINK_ClrBPEx(BPHandle = 0x0000000C)
T43E90 000:570.386 - 0.013ms returns 0x00
T43E90 000:570.395 JLINK_ReadReg(R0)
T43E90 000:570.404 - 0.013ms returns 0x00000001
T43E90 000:570.414 JLINK_HasError()
